T47A0 11886:055 SEGGER J-Link V6.48a Log File (0000ms, 238811ms total)
T47A0 11886:055 DLL Compiled: Jul 30 2019 15:16:09 (0000ms, 238811ms total)
T47A0 11886:055 Logging started @ 2022-05-03 01:48 (0000ms, 238811ms total)
T47A0 11886:062 JLINK_ExecCommand("Device = AT91SAM4S4A", ...). Device "ATSAM4S4A" selected.  returns 0x00 (0001ms, 238812ms total)
T47A0 11886:385 JLINK_TIF_Select(JLINKARM_TIF_SWD)  returns 0x00 (0001ms, 238813ms total)
T47A0 11886:386 JLINK_SetSpeed(4000) (0001ms, 238814ms total)
T47A0 11886:387 JLINK_ResetPullsRESET(OFF) (0000ms, 238814ms total)
T47A0 11886:387 JLINK_Connect() >0x10B TIF>Found SW-DP with ID 0x2BA01477 >0x0D TIF> >0x28 TIF> >0x0D TIF> >0x28 TIF> >0x0D TIF> >0x28 TIF> >0x0D TIF> >0x28 TIF> >0x0D TIF> >0x21 TIF> >0x0D TIF> >0x28 TIF>Scanning AP map to find all available APs >0x0D TIF> >0x28 TIF> >0x0D TIF> >0x21 TIF> >0x0D TIF> >0x21 TIF> >0x0D TIF> >0x28 TIF> >0x0D TIF> >0x21 TIF> >0x0D TIF> >0x21 TIF>AP[1]: Stopped AP scan as end of AP map has been reachedAP[0]: AHB-AP (IDR: 0x24770011)
Iterating through AP map to find AHB-AP to use >0x42 TIF> >0x28 TIF> >0x0D TIF> >0x28 TIF> >0x0D TIF> >0x21 TIF> >0x0D TIF> >0x21 TIF> >0x42 TIF> >0x28 TIF> >0x0D TIF> >0x28 TIF> >0x0D TIF> >0x28 TIF> >0x0D TIF> >0x21 TIF> >0x0D TIF> >0x21 TIF>AP[0]: Core foundAP[0]: AHB-AP ROM base: 0xE00FF000 >0x0D TIF> >0x28 TIF> >0x0D TIF> >0x28 TIF> >0x0D TIF> >0x28 TIF> >0x0D TIF> >0x21 TIF> >0x0D TIF> >0x21 TIF>CPUID register: 0x410FC241. Implementer code: 0x41 (ARM)Found Cortex-M4 r0p1, Little endian.
 -- Max. mem block: 0x00002D80 -- CPU_ReadMem(4 bytes @ 0xE000EDF0) -- CPU_WriteMem(4 bytes @ 0xE000EDF0) -- CPU_ReadMem(4 bytes @ 0xE0002000)FPUnit: 6 code (BP) slots and 2 literal slots -- CPU_ReadMem(4 bytes @ 0xE000EDFC) -- CPU_WriteMem(4 bytes @ 0xE000EDFC) -- CPU_ReadMem(4 bytes @ 0xE0001000) -- CPU_WriteMem(4 bytes @ 0xE0001000) -- CPU_ReadMem(4 bytes @ 0xE000ED88) -- CPU_WriteMem(4 bytes @ 0xE000ED88) -- CPU_ReadMem(4 bytes @ 0xE000ED88) -- CPU_WriteMem(4 bytes @ 0xE000ED88)CoreSight components:
ROMTbl[0] @ E00FF000 -- CPU_ReadMem(16 bytes @ 0xE00FF000) -- CPU_ReadMem(16 bytes @ 0xE000EFF0) -- CPU_ReadMem(16 bytes @ 0xE000EFE0)ROMTbl[0][0]: E000E000, CID: B105E00D, PID: 000BB000 SCS -- CPU_ReadMem(16 bytes @ 0xE0001FF0) -- CPU_ReadMem(16 bytes @ 0xE0001FE0)ROMTbl[0][1]: E0001000, CID: B105E00D, PID: 003BB002 DWT -- CPU_ReadMem(16 bytes @ 0xE0002FF0) -- CPU_ReadMem(16 bytes @ 0xE0002FE0)ROMTbl[0][2]: E0002000, CID: B105E00D, PID: 002BB003 FPB -- CPU_ReadMem(16 bytes @ 0xE0000FF0)
 -- CPU_ReadMem(16 bytes @ 0xE0000FE0)ROMTbl[0][3]: E0000000, CID: B105E00D, PID: 003BB001 ITM -- CPU_ReadMem(16 bytes @ 0xE00FF010) -- CPU_ReadMem(16 bytes @ 0xE0040FF0) -- CPU_ReadMem(16 bytes @ 0xE0040FE0)ROMTbl[0][4]: E0040000, CID: B105900D, PID: 000BB9A1 TPIU  returns 0x00 (0738ms, 239552ms total)
T47A0 11887:125 JLINK_Halt()  returns 0x00 (0003ms, 239555ms total)
T47A0 11887:129 JLINK_BeginDownload(Flags = 0x00) (0000ms, 239555ms total)
T47A0 11887:129 JLINK_WriteMem(0x400E0A04, 0x0004 Bytes, ...) - Data: 0B 01 00 5A -- CPU_WriteMem(4 bytes @ 0x400E0A04)  returns 0x04 (0000ms, 239555ms total)
T47A0 11887:129 JLINK_EndDownload()  returns 0x00 (0000ms, 239555ms total)
T47A0 11887:129 JLINK_ReadMemHW(0x400E0A08, 0x0004 Bytes, ...) -- CPU_ReadMem(4 bytes @ 0x400E0A08) - Data: 01 00 00 00  returns 0x00 (0001ms, 239556ms total)
T47A0 11887:130 JLINK_SetResetType(JLINKARM_CM3_RESET_TYPE_NORMAL)  returns JLINKARM_CM3_RESET_TYPE_NORMAL (0000ms, 239556ms total)
T47A0 11887:130 JLINK_Reset() -- CPU_ReadMem(16 bytes @ 0x20000000) -- CPU_WriteMem(16 bytes @ 0x20000000) -- CPU_ReadMem(4 bytes @ 0xE000EDFC) -- CPU_WriteMem(4 bytes @ 0xE000EDFC) -- CPU_ReadMem(4 bytes @ 0xE0001000) -- CPU_WriteMem(4 bytes @ 0xE000EDFC) -- CPU_WriteMem(16 bytes @ 0x20000000) -- CPU_WriteMem(4 bytes @ 0xE0002000) -- CPU_ReadMem(4 bytes @ 0xE000EDFC) -- CPU_ReadMem(4 bytes @ 0xE0001000) (0025ms, 239581ms total)
T47A0 11887:157 JLINK_JTAG_GetDeviceID(DeviceIndex = 0)  returns 0x00 (0000ms, 239581ms total)
T47A0 11887:157 JLINK_ReadMemU32(0x400E0740, 0x0001 Items, ...) -- CPU_ReadMem(4 bytes @ 0x400E0740) - Data: E1 09 8B 28  returns 1 (0000ms, 239581ms total)
T47A0 11887:158 JLINK_ReadMemU32(0x400E0744, 0x0001 Items, ...) -- CPU_ReadMem(4 bytes @ 0x400E0744) - Data: 00 00 00 00  returns 1 (0000ms, 239581ms total)
T2A38 11887:166 JLINK_IsHalted()  returns TRUE (0000ms, 239581ms total)
T2A38 11887:166 JLINK_GetMOEs(...) -- CPU_ReadMem(4 bytes @ 0xE000ED30)  returns 0x01 (0000ms, 239581ms total)
T2A38 11887:166 JLINK_ReadReg(R15 (PC))  returns 0x004036CC (0000ms, 239581ms total)
T47A0 11887:180 JLINK_BeginDownload(Flags = 0x00) (0000ms, 239581ms total)
T47A0 11887:180 JLINK_WriteMem(0x00400000, 0x4000 Bytes, ...) - Data: 20 76 00 20 CD 36 40 00 C9 36 40 00 C9 36 40 00 ... -- Read from flash cache (16384 bytes @ 0x00400000)  returns 0x4000 (0000ms, 239581ms total)
T47A0 11887:180 JLINK_WriteMem(0x00404000, 0x6A84 Bytes, ...) - Data: 0B 46 00 20 2B 49 DF F8 D4 80 C0 47 02 46 0B 46 ... -- Read from flash cache (27268 bytes @ 0x00404000)  returns 0x6A84 (0000ms, 239581ms total)
T47A0 11887:180 JLINK_WriteMem(0x0040AA84, 0x0008 Bytes, ...) - Data: CC F5 FF 7F 01 00 00 00  returns 0x08 (0000ms, 239581ms total)
T47A0 11887:181 JLINK_WriteMem(0x0040AA8C, 0x0B38 Bytes, ...) - Data: 30 B4 82 B0 04 9D 5B B3 1C 46 03 68 43 F4 80 33 ... -- Read from flash cache (2872 bytes @ 0x0040AA8C)  returns 0xB38 (0000ms, 239581ms total)
T47A0 11887:188 JLINK_EndDownload() -- CPU_ReadMem(4 bytes @ 0xE000ED90) -- CPU_ReadMem(4 bytes @ 0xE000ED94) -- -------------------------------------- -- Start of determining dirty areas in flash cache -- End of determining dirty areas -- Start of preparing flash programming -- Calculating RAM usage -- RAM usage = 3924 Bytes -- Preserving CPU registers -- Preparing memory -- Preparing target -- Downloading RAMCode -- Checking target RAM -- Preparing RAMCode -- End of preparing flash programming
 -- CPU is running at 90000 kHz. -- Start of comparing flash -- CRC check was estimated as fastest method -- Comparing range 0x400000 - 0x403FFF (32 Sectors, 16 KB), using multi-block CRC calculation -- CRC does not match for sector 27 -- Comparing range 0x404000 - 0x40BFFF (8 Sectors, 32 KB), using multi-block CRC calculation -- CRC does not match for sector 0 -- Comparing range 0x400000 - 0x4035FF (27 Sectors, 13 KB), using alternative multi-block CRC calculation -- All CRCs match
 -- Comparing range 0x403800 - 0x403FFF (4 Sectors, 2 KB), using alternative multi-block CRC calculation -- All CRCs match -- Comparing range 0x405000 - 0x40BFFF (7 Sectors, 28 KB), using alternative multi-block CRC calculation -- All CRCs match -- End of comparing flash -- Start of erasing sectors -- Erasing range 0x00403600 - 0x004037FF (  1 Sector, 512 Bytes) -- Erasing range 0x00404000 - 0x00404FFF (  1 Sector, 4 KB) -- End of erasing sectors -- Start of flash programming
 -- Programming range 0x00403600 - 0x004037FF (  1 Sector, 512 Bytes) -- Programming range 0x00404000 - 0x00404FFF (  1 Sector, 4 KB) -- End of flash programming -- 0x403600 - 0x4037FF (  1 Sector, 512 Bytes) -- 0x404000 - 0x404FFF (  1 Sector, 4 KB) -- Start of verifying flash -- Checksum calculation was estimated as fastest method -- Checksum calculation was estimated as fastest method -- End of verifying flash -- Start of restoring -- Restoring RAMCode -- Restore target -- Restore memory
 -- Restoring CPU registers -- End of restoring -- Bank 0 @ 0x00400000: 2 ranges affected (4608 bytes) -- Total time needed: 0.360s (Prepare: 0.193s, Compare: 0.042s, Erase: 0.034s, Program: 0.032s, Verify: 0.001s, Restore: 0.055s)  returns 0x1200 (0364ms, 239945ms total)
T47A0 11887:552 JLINK_SetResetType(JLINKARM_CM3_RESET_TYPE_NORMAL)  returns JLINKARM_CM3_RESET_TYPE_NORMAL (0000ms, 239945ms total)
T47A0 11887:552 JLINK_Reset() -- CPU_ReadMem(16 bytes @ 0x20000000) -- CPU_WriteMem(16 bytes @ 0x20000000) -- CPU_ReadMem(4 bytes @ 0xE000EDFC) -- CPU_WriteMem(4 bytes @ 0xE000EDFC) -- CPU_ReadMem(4 bytes @ 0xE0001000) -- CPU_WriteMem(4 bytes @ 0xE000EDFC) -- CPU_WriteMem(16 bytes @ 0x20000000) -- CPU_WriteMem(4 bytes @ 0xE0002000) -- CPU_ReadMem(4 bytes @ 0xE000EDFC) -- CPU_ReadMem(4 bytes @ 0xE0001000) (0026ms, 239971ms total)
T5DDC 11887:682 JLINK_Halt()  returns 0x00 (0000ms, 239971ms total)
T5DDC 11887:682 JLINK_ReadReg(R15 (PC))  returns 0x004036CC (0000ms, 239971ms total)
T5DDC 11887:682 JLINK_ReadReg(R13 (SP))  returns 0x20007620 (0000ms, 239971ms total)
T5DDC 11887:685 JLINK_ReadMemHW(0x004036CC, 0x0004 Bytes, ...) -- CPU_ReadMem(4 bytes @ 0x004036CC) - Data: 08 B5 21 4B  returns 0x00 (0001ms, 239972ms total)
T5DDC 11887:686 JLINK_ReadReg(R0)  returns 0x400E1400 (0000ms, 239972ms total)
T5DDC 11887:686 JLINK_ReadReg(R1)  returns 0x40C00000 (0000ms, 239972ms total)
T5DDC 11887:686 JLINK_ReadReg(R2)  returns 0xA5000005 (0000ms, 239972ms total)
T5DDC 11887:686 JLINK_ReadReg(R3)  returns 0x7EA5EB14 (0000ms, 239972ms total)
T5DDC 11887:686 JLINK_ReadReg(R4)  returns 0x3F52E126 (0000ms, 239972ms total)
T5DDC 11887:686 JLINK_ReadReg(R5)  returns 0x20000144 (0000ms, 239972ms total)
T5DDC 11887:686 JLINK_ReadReg(R6)  returns 0x3F533931 (0000ms, 239972ms total)
T5DDC 11887:686 JLINK_ReadReg(R7)  returns 0x3F52F58A (0000ms, 239972ms total)
T5DDC 11887:686 JLINK_ReadReg(R8)  returns 0x004062DD (0000ms, 239972ms total)
T5DDC 11887:686 JLINK_ReadReg(R9)  returns 0x004062A1 (0000ms, 239972ms total)
T5DDC 11887:686 JLINK_ReadReg(R10)  returns 0x20000148 (0000ms, 239972ms total)
T5DDC 11887:686 JLINK_ReadReg(R11)  returns 0x24025402 (0000ms, 239972ms total)
T5DDC 11887:686 JLINK_ReadReg(R12)  returns 0x7FF7F7CE (0000ms, 239972ms total)
T5DDC 11887:686 JLINK_ReadReg(R13 (SP))  returns 0x20007620 (0000ms, 239972ms total)
T5DDC 11887:686 JLINK_ReadReg(R14)  returns 0xFFFFFFFF (0001ms, 239973ms total)
T5DDC 11887:687 JLINK_ReadReg(R15 (PC))  returns 0x004036CC (0000ms, 239973ms total)
T5DDC 11887:687 JLINK_ReadReg(XPSR)  returns 0x01000000 (0000ms, 239973ms total)
T5DDC 11887:687 JLINK_ReadReg(MSP)  returns 0x20007620 (0000ms, 239973ms total)
T5DDC 11887:687 JLINK_ReadReg(PSP)  returns 0x0E0F3080 (0000ms, 239973ms total)
T5DDC 11887:687 JLINK_ReadReg(PRIMASK)  returns 0x00000000 (0000ms, 239973ms total)
T5DDC 11887:687 JLINK_ReadReg(BASEPRI)  returns 0x00000000 (0000ms, 239973ms total)
T5DDC 11887:687 JLINK_ReadReg(FAULTMASK)  returns 0x00000000 (0000ms, 239973ms total)
T5DDC 11887:687 JLINK_ReadReg(CONTROL)  returns 0x00000000 (0000ms, 239973ms total)
T5DDC 11887:687 JLINK_ReadMemHW(0x004036CC, 0x0002 Bytes, ...) -- CPU_ReadMem(2 bytes @ 0x004036CC) - Data: 08 B5  returns 0x00 (0000ms, 239973ms total)
T5DDC 11887:716 JLINK_ReadReg(R0)  returns 0x400E1400 (0000ms, 239973ms total)
T5DDC 11887:716 JLINK_ReadReg(R1)  returns 0x40C00000 (0000ms, 239973ms total)
T5DDC 11887:716 JLINK_ReadReg(R2)  returns 0xA5000005 (0000ms, 239973ms total)
T5DDC 11887:716 JLINK_ReadReg(R3)  returns 0x7EA5EB14 (0000ms, 239973ms total)
T5DDC 11887:716 JLINK_ReadReg(R4)  returns 0x3F52E126 (0000ms, 239973ms total)
T5DDC 11887:716 JLINK_ReadReg(R5)  returns 0x20000144 (0000ms, 239973ms total)
T5DDC 11887:716 JLINK_ReadReg(R6)  returns 0x3F533931 (0000ms, 239973ms total)
T5DDC 11887:716 JLINK_ReadReg(R7)  returns 0x3F52F58A (0000ms, 239973ms total)
T5DDC 11887:716 JLINK_ReadReg(R8)  returns 0x004062DD (0000ms, 239973ms total)
T5DDC 11887:716 JLINK_ReadReg(R9)  returns 0x004062A1 (0000ms, 239973ms total)
T5DDC 11887:716 JLINK_ReadReg(R10)  returns 0x20000148 (0000ms, 239973ms total)
T5DDC 11887:716 JLINK_ReadReg(R11)  returns 0x24025402 (0000ms, 239973ms total)
T5DDC 11887:716 JLINK_ReadReg(R12)  returns 0x7FF7F7CE (0000ms, 239973ms total)
T5DDC 11887:716 JLINK_ReadReg(R13 (SP))  returns 0x20007620 (0000ms, 239973ms total)
T5DDC 11887:716 JLINK_ReadReg(R14)  returns 0xFFFFFFFF (0000ms, 239973ms total)
T5DDC 11887:716 JLINK_ReadReg(R15 (PC))  returns 0x004036CC (0000ms, 239973ms total)
T5DDC 11887:716 JLINK_ReadReg(XPSR)  returns 0x01000000 (0000ms, 239973ms total)
T5DDC 11887:716 JLINK_ReadReg(MSP)  returns 0x20007620 (0000ms, 239973ms total)
T5DDC 11887:716 JLINK_ReadReg(PSP)  returns 0x0E0F3080 (0000ms, 239973ms total)
T5DDC 11887:716 JLINK_ReadReg(PRIMASK)  returns 0x00000000 (0000ms, 239973ms total)
T5DDC 11887:716 JLINK_ReadReg(BASEPRI)  returns 0x00000000 (0000ms, 239973ms total)
T5DDC 11887:716 JLINK_ReadReg(FAULTMASK)  returns 0x00000000 (0000ms, 239973ms total)
T5DDC 11887:716 JLINK_ReadReg(CONTROL)  returns 0x00000000 (0000ms, 239973ms total)
T5DDC 11887:723 JLINK_ReadMemHW(0x004036CC, 0x0004 Bytes, ...) -- CPU_ReadMem(4 bytes @ 0x004036CC) - Data: 08 B5 21 4B  returns 0x00 (0001ms, 239974ms total)
T2A38 11887:766 JLINK_IsHalted()  returns TRUE (0000ms, 239974ms total)
T47A0 11887:798 JLINK_GetNumBPUnits(Type = 0xFFFFFF02)  returns 0x06 (0000ms, 239974ms total)
T47A0 11887:798 JLINK_SetBPEx(Addr = 0x00800CC4, Type = 0xFFFFFFF2)  returns 0x00000001 (0000ms, 239974ms total)
T47A0 11887:798 JLINK_GetBPInfo(BPHandle = 1)  returns 0x00 (0000ms, 239974ms total)
T3780 11887:814 JLINK_EMU_GetList(InterfaceMask = 0x00000001, MaxInfos = 0x00000032) [0]: USB, S/N: 801030912  returns 0x01 (0002ms, 239976ms total)
T47A0 11887:816 JLINK_WriteU32(0xE000EDFC, 0x01000000) -- CPU_WriteMem(4 bytes @ 0xE000EDFC)  returns 0 (0001ms, 239977ms total)
T3780 11887:817 JLINK_EMU_GetList(InterfaceMask = 0x00000002, MaxInfos = 0x00000032)   returns 0x00 (0046ms, 240023ms total)
T47A0 11887:863 JLINK_ReadMem (0xE0001000, 0x0004 Bytes, ...) -- CPU_ReadMem(4 bytes @ 0xE0001000) - Data: 01 00 00 40  returns 0x00 (0000ms, 240023ms total)
T47A0 11887:863 JLINK_WriteU32(0xE0001000, 0x40000001)  returns 0 (0000ms, 240023ms total)
T47A0 11887:863 JLINK_WriteU32(0xE0001028, 0x00000100)  returns 0 (0000ms, 240023ms total)
T47A0 11887:863 JLINK_ReadMem (0xE0001028, 0x0004 Bytes, ...) -- CPU_WriteMem(4 bytes @ 0xE0001028) -- CPU_ReadMem(4 bytes @ 0xE0001028) - Data: 00 00 00 00  returns 0x00 (0002ms, 240025ms total)
T47A0 11887:865 JLINK_WriteU32(0xE0001024, 0x0000001F)  returns 0 (0000ms, 240025ms total)
T47A0 11887:865 JLINK_ReadMem (0xE0001024, 0x0004 Bytes, ...) -- CPU_WriteMem(4 bytes @ 0xE0001024) -- CPU_ReadMem(4 bytes @ 0xE0001024) - Data: 0F 00 00 00  returns 0x00 (0001ms, 240026ms total)
T47A0 11887:866 JLINK_WriteU32(0xE0001038, 0x00000100)  returns 0 (0000ms, 240026ms total)
T47A0 11887:866 JLINK_ReadMem (0xE0001038, 0x0004 Bytes, ...) -- CPU_WriteMem(4 bytes @ 0xE0001038) -- CPU_ReadMem(4 bytes @ 0xE0001038) - Data: 00 03 00 00  returns 0x00 (0001ms, 240027ms total)
T47A0 11887:867 JLINK_WriteU32(0xE0001034, 0x0000001F)  returns 0 (0000ms, 240027ms total)
T47A0 11887:867 JLINK_ReadMem (0xE0001034, 0x0004 Bytes, ...) -- CPU_WriteMem(4 bytes @ 0xE0001034) -- CPU_ReadMem(4 bytes @ 0xE0001034) - Data: 0F 00 00 00  returns 0x00 (0001ms, 240028ms total)
T47A0 11887:868 JLINK_WriteU32(0xE0001048, 0x00000100)  returns 0 (0000ms, 240028ms total)
T47A0 11887:868 JLINK_ReadMem (0xE0001048, 0x0004 Bytes, ...) -- CPU_WriteMem(4 bytes @ 0xE0001048) -- CPU_ReadMem(4 bytes @ 0xE0001048) - Data: 00 00 00 00  returns 0x00 (0001ms, 240029ms total)
T47A0 11887:869 JLINK_WriteU32(0xE0001044, 0x0000001F)  returns 0 (0000ms, 240029ms total)
T47A0 11887:869 JLINK_ReadMem (0xE0001044, 0x0004 Bytes, ...) -- CPU_WriteMem(4 bytes @ 0xE0001044) -- CPU_ReadMem(4 bytes @ 0xE0001044) - Data: 0F 00 00 00  returns 0x00 (0001ms, 240030ms total)
T47A0 11887:870 JLINK_WriteU32(0xE0001058, 0x00000100)  returns 0 (0000ms, 240030ms total)
T47A0 11887:870 JLINK_ReadMem (0xE0001058, 0x0004 Bytes, ...) -- CPU_WriteMem(4 bytes @ 0xE0001058) -- CPU_ReadMem(4 bytes @ 0xE0001058) - Data: 00 00 00 00  returns 0x00 (0002ms, 240032ms total)
T47A0 11887:872 JLINK_WriteU32(0xE0001054, 0x0000001F)  returns 0 (0000ms, 240032ms total)
T47A0 11887:872 JLINK_ReadMem (0xE0001054, 0x0004 Bytes, ...) -- CPU_WriteMem(4 bytes @ 0xE0001054) -- CPU_ReadMem(4 bytes @ 0xE0001054) - Data: 0F 00 00 00  returns 0x00 (0001ms, 240033ms total)
T47A0 11887:873 JLINK_WriteU32(0xE0001020, 0x00000000)  returns 0 (0000ms, 240033ms total)
T47A0 11887:873 JLINK_WriteU32(0xE0001024, 0x00000000)  returns 0 (0000ms, 240033ms total)
T47A0 11887:873 JLINK_WriteU32(0xE0001028, 0x00000000)  returns 0 (0000ms, 240033ms total)
T47A0 11887:873 JLINK_WriteU32(0xE0001030, 0x00000000)  returns 0 (0000ms, 240033ms total)
T47A0 11887:873 JLINK_WriteU32(0xE0001034, 0x00000000)  returns 0 (0000ms, 240033ms total)
T47A0 11887:873 JLINK_WriteU32(0xE0001038, 0x00000000)  returns 0 (0000ms, 240033ms total)
T47A0 11887:873 JLINK_WriteU32(0xE0001040, 0x00000000)  returns 0 (0000ms, 240033ms total)
T47A0 11887:873 JLINK_WriteU32(0xE0001044, 0x00000000)  returns 0 (0000ms, 240033ms total)
T47A0 11887:873 JLINK_WriteU32(0xE0001048, 0x00000000)  returns 0 (0000ms, 240033ms total)
T47A0 11887:873 JLINK_WriteU32(0xE0001050, 0x00000000)  returns 0 (0000ms, 240033ms total)
T47A0 11887:873 JLINK_WriteU32(0xE0001054, 0x00000000)  returns 0 (0000ms, 240033ms total)
T47A0 11887:873 JLINK_WriteU32(0xE0001058, 0x00000000)  returns 0 (0000ms, 240033ms total)
T47A0 11887:873 JLINK_GetBPInfo(BPHandle = 1)  returns 0x00 (0000ms, 240033ms total)
T47A0 11887:873 JLINK_ClrBPEx(BPHandle = 0x00000001)  returns 0x00 (0000ms, 240033ms total)
T5DDC 11887:884 JLINK_SetResetType(JLINKARM_CM3_RESET_TYPE_NORMAL)  returns JLINKARM_CM3_RESET_TYPE_NORMAL (0000ms, 240033ms total)
T5DDC 11887:884 JLINK_Reset() -- CPU_WriteMem(4 bytes @ 0xE0001000) -- CPU_WriteMem(4 bytes @ 0xE0001020) -- CPU_WriteMem(4 bytes @ 0xE0001030) -- CPU_WriteMem(4 bytes @ 0xE0001040) -- CPU_WriteMem(4 bytes @ 0xE0001050) -- CPU_WriteMem(4 bytes @ 0xE0001024) -- CPU_WriteMem(4 bytes @ 0xE0001034) -- CPU_WriteMem(4 bytes @ 0xE0001044) -- CPU_WriteMem(4 bytes @ 0xE0001054) -- CPU_WriteMem(4 bytes @ 0xE0001028) -- CPU_WriteMem(4 bytes @ 0xE0001038) -- CPU_WriteMem(4 bytes @ 0xE0001048)
 -- CPU_WriteMem(4 bytes @ 0xE0001058) -- CPU_ReadMem(16 bytes @ 0x20000000) -- CPU_WriteMem(16 bytes @ 0x20000000) -- CPU_ReadMem(4 bytes @ 0xE000EDFC) -- CPU_WriteMem(4 bytes @ 0xE000EDFC) -- CPU_ReadMem(4 bytes @ 0xE0001000) -- CPU_WriteMem(4 bytes @ 0xE0001004) -- CPU_WriteMem(4 bytes @ 0xE000EDFC) -- CPU_WriteMem(16 bytes @ 0x20000000) -- CPU_WriteMem(4 bytes @ 0xE0002000) -- CPU_ReadMem(4 bytes @ 0xE000EDFC) -- CPU_ReadMem(4 bytes @ 0xE0001000) (0029ms, 240062ms total)
T2A38 11887:913 JLINK_IsHalted()  returns TRUE (0000ms, 240062ms total)
T2A38 11887:913 JLINK_GetMOEs(...) -- CPU_ReadMem(4 bytes @ 0xE000ED30)  returns 0x01 (0001ms, 240063ms total)
T2A38 11887:914 JLINK_ReadReg(R15 (PC))  returns 0x004036CC (0000ms, 240063ms total)
T5DDC 11887:923 JLINK_ReadReg(R15 (PC))  returns 0x004036CC (0000ms, 240063ms total)
T5DDC 11887:923 JLINK_ReadReg(R13 (SP))  returns 0x20007620 (0000ms, 240063ms total)
T5DDC 11887:923 JLINK_ReadMemHW(0x004036CC, 0x0004 Bytes, ...) -- CPU_ReadMem(4 bytes @ 0x004036CC) - Data: 08 B5 21 4B  returns 0x00 (0001ms, 240064ms total)
T5DDC 11888:031 JLINK_ReadMemHW(0x00404E9C, 0x0001 Bytes, ...) -- CPU_ReadMem(1 bytes @ 0x00404E9C) - Data: 08  returns 0x00 (0001ms, 240065ms total)
T5DDC 11888:064 JLINK_ReadReg(R15 (PC))  returns 0x004036CC (0000ms, 240065ms total)
T5DDC 11888:064 JLINK_SetBPEx(Addr = 0x00404E9C, Type = 0xFFFFFFF2)  returns 0x00000002 (0000ms, 240065ms total)
T5DDC 11888:064 JLINK_GetBPInfo(BPHandle = 2)  returns 0x00 (0000ms, 240065ms total)
T5DDC 11888:064 JLINK_Go() -- CPU_WriteMem(4 bytes @ 0xE0002000) -- CPU_ReadMem(4 bytes @ 0xE0001000) -- CPU_WriteMem(4 bytes @ 0xE000ED30) -- CPU_WriteMem(4 bytes @ 0xE0002008) -- CPU_WriteMem(4 bytes @ 0xE000200C) -- CPU_WriteMem(4 bytes @ 0xE0002010) -- CPU_WriteMem(4 bytes @ 0xE0002014) -- CPU_WriteMem(4 bytes @ 0xE0002018) -- CPU_WriteMem(4 bytes @ 0xE000201C) -- CPU_WriteMem(4 bytes @ 0xE0001004) (0004ms, 240069ms total)
T2A38 11888:068 JLINK_IsHalted()  returns FALSE (0001ms, 240070ms total)
T2A38 11888:089 JLINK_IsHalted()  returns TRUE (0003ms, 240072ms total)
T2A38 11888:092 JLINK_GetMOEs(...) -- CPU_ReadMem(4 bytes @ 0xE000ED30)  returns 0x01 (0000ms, 240069ms total)
T2A38 11888:092 JLINK_ReadReg(R15 (PC))  returns 0x00404E9C (0000ms, 240069ms total)
T5DDC 11888:098 JLINK_ReadReg(R15 (PC))  returns 0x00404E9C (0000ms, 240069ms total)
T5DDC 11888:098 JLINK_ReadReg(R13 (SP))  returns 0x20007618 (0000ms, 240069ms total)
T5DDC 11888:098 JLINK_ReadMemHW(0x00404E9C, 0x0004 Bytes, ...) -- CPU_ReadMem(4 bytes @ 0x00404E9C) - Data: 08 B5 09 4B  returns 0x00 (0001ms, 240070ms total)
T47A0 11888:183 JLINK_ReadMem (0x40000000, 0x0372 Bytes, ...) -- CPU_ReadMem(882 bytes @ 0x40000000) - Data: 00 00 00 00 00 00 00 00 00 00 00 00 00 00 00 00 ...  returns 0x00 (0006ms, 240076ms total)
T47A0 11888:192 JLINK_ReadMem (0x40000000, 0x0372 Bytes, ...) -- CPU_ReadMem(882 bytes @ 0x40000000) - Data: 00 00 00 00 00 00 00 00 00 00 00 00 00 00 00 00 ...  returns 0x00 (0005ms, 240081ms total)
T47A0 11888:243 JLINK_ReadMem (0x40000372, 0x0090 Bytes, ...) -- CPU_ReadMem(144 bytes @ 0x40000372) - Data: 00 00 00 00 00 00 00 00 00 00 00 00 00 00 00 00 ...  returns 0x00 (0001ms, 240082ms total)
T47A0 11888:245 JLINK_ReadMem (0x400E1430, 0x0004 Bytes, ...) -- CPU_ReadMem(4 bytes @ 0x400E1430) - Data: 00 00 01 00  returns 0x00 (0001ms, 240083ms total)
T47A0 11888:250 JLINK_ReadMem (0x40000402, 0x00AB Bytes, ...) -- CPU_ReadMem(171 bytes @ 0x40000402) - Data: 00 00 00 00 00 00 00 00 00 00 00 00 00 00 00 00 ...  returns 0x00 (0002ms, 240085ms total)
T47A0 11888:252 JLINK_ReadMem (0x400E1434, 0x0004 Bytes, ...) -- CPU_ReadMem(4 bytes @ 0x400E1434) - Data: 1D 00 00 00  returns 0x00 (0001ms, 240086ms total)
T2A38 11888:293 JLINK_IsHalted()  returns TRUE (0000ms, 240086ms total)
T47A0 11888:346 JLINK_ReadMem (0x400E1438, 0x0004 Bytes, ...) -- CPU_ReadMem(4 bytes @ 0x400E1438) - Data: 1A 00 00 00  returns 0x00 (0001ms, 240087ms total)
T47A0 11888:413 JLINK_ReadMem (0x400E143C, 0x0004 Bytes, ...) -- CPU_ReadMem(4 bytes @ 0x400E143C) - Data: 02 00 00 00  returns 0x00 (0001ms, 240088ms total)
T2A38 11888:493 JLINK_IsHalted()  returns TRUE (0000ms, 240088ms total)
T47A0 11888:533 JLINK_GetBPInfo(BPHandle = 2)  returns 0x00 (0000ms, 240088ms total)
T47A0 11888:533 JLINK_ClrBPEx(BPHandle = 0x00000002)  returns 0x00 (0000ms, 240088ms total)
T2A38 11888:693 JLINK_IsHalted()  returns TRUE (0000ms, 240088ms total)
T47A0 11888:694 JLINK_ResetPullsRESET(ON) (0000ms, 240088ms total)
T47A0 11888:694 JLINK_ResetNoHalt() >0x10B TIF>Found SW-DP with ID 0x2BA01477 >0x0D TIF> >0x28 TIF> >0x0D TIF> >0x28 TIF> >0x0D TIF> >0x28 TIF> >0x0D TIF> >0x28 TIF> >0x0D TIF> >0x21 TIF> >0x0D TIF> >0x28 TIF>AP map detection skipped. Manually configured AP map found.AP[0]: AHB-AP (IDR: Not set) >0x42 TIF> >0x28 TIF> >0x0D TIF> >0x28 TIF> >0x0D TIF> >0x21 TIF> >0x0D TIF> >0x21 TIF> >0x42 TIF> >0x28 TIF> >0x0D TIF> >0x28 TIF> >0x0D TIF> >0x28 TIF> >0x0D TIF> >0x0D TIF> >0x21 TIF> >0x0D TIF> >0x21 TIF>
AP[0]: Core foundAP[0]: AHB-AP ROM base: 0xE00FF000 >0x0D TIF> >0x28 TIF> >0x0D TIF> >0x28 TIF> >0x0D TIF> >0x28 TIF> >0x0D TIF> >0x21 TIF> >0x0D TIF> >0x21 TIF>CPUID register: 0x410FC241. Implementer code: 0x41 (ARM)Found Cortex-M4 r0p1, Little endian. -- Max. mem block: 0x00002C20 -- CPU_ReadMem(4 bytes @ 0xE000EDF0) -- CPU_ReadMem(4 bytes @ 0xE0002000)FPUnit: 6 code (BP) slots and 2 literal slots -- CPU_ReadMem(4 bytes @ 0xE000EDFC) -- CPU_ReadMem(4 bytes @ 0xE0001000)
 -- CPU_ReadMem(4 bytes @ 0xE000ED88) -- CPU_WriteMem(4 bytes @ 0xE000ED88) -- CPU_ReadMem(4 bytes @ 0xE000ED88) -- CPU_WriteMem(4 bytes @ 0xE000ED88)CoreSight components:ROMTbl[0] @ E00FF000 -- CPU_ReadMem(16 bytes @ 0xE00FF000) -- CPU_ReadMem(16 bytes @ 0xE000EFF0) -- CPU_ReadMem(16 bytes @ 0xE000EFE0)ROMTbl[0][0]: E000E000, CID: B105E00D, PID: 000BB000 SCS -- CPU_WriteMem(4 bytes @ 0xE0001000) -- CPU_ReadMem(16 bytes @ 0xE0001FF0) -- CPU_ReadMem(16 bytes @ 0xE0001FE0)
ROMTbl[0][1]: E0001000, CID: B105E00D, PID: 003BB002 DWT -- CPU_ReadMem(16 bytes @ 0xE0002FF0) -- CPU_ReadMem(16 bytes @ 0xE0002FE0)ROMTbl[0][2]: E0002000, CID: B105E00D, PID: 002BB003 FPB -- CPU_ReadMem(16 bytes @ 0xE0000FF0) -- CPU_ReadMem(16 bytes @ 0xE0000FE0)ROMTbl[0][3]: E0000000, CID: B105E00D, PID: 003BB001 ITM -- CPU_ReadMem(16 bytes @ 0xE00FF010) -- CPU_ReadMem(16 bytes @ 0xE0040FF0) -- CPU_ReadMem(16 bytes @ 0xE0040FE0)ROMTbl[0][4]: E0040000, CID: B105900D, PID: 000BB9A1 TPIU
                JLINK_Reset() -- CPU_ReadMem(16 bytes @ 0x20000000) -- CPU_WriteMem(16 bytes @ 0x20000000) -- CPU_ReadMem(4 bytes @ 0xE000EDFC) -- CPU_WriteMem(4 bytes @ 0xE000EDFC) -- CPU_ReadMem(4 bytes @ 0xE0001000) -- CPU_WriteMem(4 bytes @ 0xE000EDFC) -- CPU_WriteMem(16 bytes @ 0x20000000) -- CPU_WriteMem(4 bytes @ 0xE0002000) -- CPU_ReadMem(4 bytes @ 0xE000EDFC) -- CPU_ReadMem(4 bytes @ 0xE0001000) (0022ms, 0022ms total)
                JLINK_Go() -- CPU_ReadMem(4 bytes @ 0xE0001000) -- CPU_WriteMem(4 bytes @ 0xE0002008) -- CPU_WriteMem(4 bytes @ 0xE000200C) -- CPU_WriteMem(4 bytes @ 0xE0002010) -- CPU_WriteMem(4 bytes @ 0xE0002014) -- CPU_WriteMem(4 bytes @ 0xE0002018) -- CPU_WriteMem(4 bytes @ 0xE000201C) -- CPU_WriteMem(4 bytes @ 0xE0001004) (0002ms, 0024ms total)
               (0152ms, 240240ms total)
T47A0 11888:875 JLINK_Close() -- CPU is running -- CPU_WriteMem(4 bytes @ 0xE0002008) -- CPU is running -- CPU_WriteMem(4 bytes @ 0xE000200C) -- CPU is running -- CPU_WriteMem(4 bytes @ 0xE0002010) -- CPU is running -- CPU_WriteMem(4 bytes @ 0xE0002014) -- CPU is running -- CPU_WriteMem(4 bytes @ 0xE0002018) -- CPU is running -- CPU_WriteMem(4 bytes @ 0xE000201C) >0x0D TIF> >0x28 TIF> >0x0D TIF> >0x28 TIF> >0x0D TIF> >0x28 TIF> >0x0D TIF> >0x28 TIF> >0x0D TIF> >0x28 TIF> >0x0D TIF> >0x28 TIF> >0x0D TIF>
 >0x28 TIF> >0x0D TIF> >0x28 TIF> >0x0D TIF> >0x21 TIF> >0x0D TIF> >0x28 TIF> (0014ms, 240254ms total)
T47A0 11888:875  (0014ms, 240254ms total)
T47A0 11888:875 Closed (0014ms, 240254ms total)
